
T1FB8 001:627 SEGGER J-Link V4.15n (beta) Log File (0001ms, 1592ms total)
T1FB8 001:627 DLL Compiled: Jun 18 2010 19:55:09 (0001ms, 1592ms total)
T1FB8 001:627 Logging started @ 2015-01-19 23:03 (0001ms, 1592ms total)
T1FB8 001:628 JLINK_SetWarnOutHandler(...) (0000ms, 1593ms total)
T1FB8 001:628 JLINK_OpenEx(...)
Firmware: J-Link ARM V8 compiled Nov 14 2012 22:34:52
Hardware: V8.00
S/N: 17892859
Feature(s): RDI,FlashDL,FlashBP,JFlash  returns O.K. (0743ms, 1593ms total)
T1FB8 002:371 JLINK_SetErrorOutHandler(...) (0000ms, 2336ms total)
T1FB8 002:374 JLINK_ExecCommand("ProjectFile = "D:\新书文档\代码初稿\example4-4\Project\RVMDK\JLinkSettings.ini"", ...)  returns 0x00 (0001ms, 2336ms total)
T1FB8 002:382 JLINK_ExecCommand("DisableConnectionTimeout", ...)  returns 0x00 (0000ms, 2337ms total)
T1FB8 002:386 JLINK_TIF_Select(JLINKARM_TIF_JTAG)  returns 0x00 (0000ms, 2337ms total)
T1FB8 002:386 JLINK_SetSpeed(2000) (0002ms, 2337ms total)
T1FB8 002:388 JLINK_GetHardwareVersion()  returns 0x13880 (0000ms, 2339ms total)
T1FB8 002:388 JLINK_GetDLLVersion()  returns 41514 (0000ms, 2339ms total)
T1FB8 002:388 JLINK_GetFirmwareString(...) (0000ms, 2339ms total)
T1FB8 002:403 JLINK_GetDLLVersion()  returns 41514 (0000ms, 2339ms total)
T1FB8 002:403 JLINK_GetCompileDateTime() (0000ms, 2339ms total)
T1FB8 002:406 JLINK_GetFirmwareString(...) (0000ms, 2339ms total)
T1FB8 002:429 JLINK_GetHardwareVersion()  returns 0x13880 (0000ms, 2339ms total)
T1FB8 002:464 JLINK_Reset() >0x2F8 JTAG>TotalIRLen = 9, IRPrint = 0x0011 >0x30 JTAG> >0x210 JTAG> >0x118 JTAG> >0xD8 JTAG> >0x198 JTAG> >0x38 JTAG> >0x118 JTAG> >0xD8 JTAG> >0x2F0 JTAG> >0x2F0 JTAG> >0x198 JTAG> >0x198 JTAG>Found Cortex-M3 r1p1, Little endian. >0xD8 JTAG> >0x240 JTAG> >0x198 JTAG> >0x240 JTAG> >0x198 JTAG>TPIU fitted. >0x198 JTAG>ETM fitted. >0x198 JTAG>  FPUnit: 6 code (BP) slots and 2 literal slots >0x198 JTAG> >0x250 JTAG> >0x240 JTAG> >0x280 JTAG> >0x198 JTAG> >0x198 JTAG>
 >0x240 JTAG> >0x240 JTAG> >0x198 JTAG> >0x198 JTAG> >0x17A8 JTAG> >0x240 JTAG> >0x198 JTAG> >0x17A8 JTAG> >0x198 JTAG> -- CPU_WriteMem(4 bytes @ 0xE000EDFC) -- CPU_WriteMem(4 bytes @ 0xE0001028) -- CPU_WriteMem(4 bytes @ 0xE0001038) -- CPU_WriteMem(4 bytes @ 0xE0001048) -- CPU_WriteMem(4 bytes @ 0xE0001058) (0178ms, 2339ms total)
T1FB8 002:642 JLINK_GetIdData(...) ScanLen=9 NumDevices=2 aId[0]=0x3BA00477 aIrRead[0]=0 aScanLen[0]=0 aScanRead[0]=0 (0002ms, 2517ms total)
T1FB8 002:644 JLINK_JTAG_GetDeviceID(DeviceIndex = 0)  returns 0x3BA00477 (0000ms, 2519ms total)
T1FB8 002:644 JLINK_JTAG_GetDeviceInfo(DeviceIndex = 0)  returns 0x00 (0001ms, 2519ms total)
T1FB8 002:645 JLINK_JTAG_GetDeviceID(DeviceIndex = 1)  returns 0x6414041 (0000ms, 2520ms total)
T1FB8 002:645 JLINK_JTAG_GetDeviceInfo(DeviceIndex = 1)  returns 0x00 (0000ms, 2520ms total)
T1FB8 002:645 JLINK_GetDebugInfo(0x100) -- Value=0xE00FF003  returns 0x00 (0000ms, 2520ms total)
T1FB8 002:648 JLINK_ReadMem (0xE00FF000, 0x0018 Bytes, ...) -- CPU_ReadMem(24 bytes @ 0xE00FF000) -- Data:  03 F0 F0 FF 03 20 F0 FF 03 30 F0 FF 03 10 F0 FF ...  returns 0x00 (0002ms, 2520ms total)
T1FB8 002:650 JLINK_ReadMemU32(0xE000ED00, 0x0001 Items, ...) -- CPU_ReadMem(4 bytes @ 0xE000ED00) -- Data:  31 C2 1F 41  returns 0x01 (0002ms, 2522ms total)
T1FB8 002:653 JLINK_Halt()  returns 0x00 (0000ms, 2524ms total)
T1FB8 002:653 JLINK_IsHalted()  returns TRUE (0000ms, 2524ms total)
T1FB8 002:653 JLINK_ReadMemU32(0xE000EDF0, 0x0001 Items, ...) -- CPU_ReadMem(4 bytes @ 0xE000EDF0) -- Data:  03 00 03 00  returns 0x01 (0003ms, 2524ms total)
T1FB8 002:656 JLINK_WriteU32(0xE000EDF0, 0xA05F0003) -- CPU_WriteMem(4 bytes @ 0xE000EDF0)  returns 0x00 (0002ms, 2527ms total)
T1FB8 002:658 JLINK_WriteU32(0xE000EDFC, 0x01000000) -- CPU_WriteMem(4 bytes @ 0xE000EDFC)  returns 0x00 (0002ms, 2529ms total)
T1FB8 002:660 JLINK_ReadMemU32(0xE0002000, 0x0001 Items, ...) -- CPU_ReadMem(4 bytes @ 0xE0002000) -- Data:  60 02 00 00  returns 0x01 (0003ms, 2531ms total)
T1FB8 002:663 JLINK_ReadMemU32(0xE0001000, 0x0001 Items, ...) -- CPU_ReadMem(4 bytes @ 0xE0001000) -- Data:  00 00 00 40  returns 0x01 (0002ms, 2534ms total)
T1FB8 002:700 JLINK_ExecCommand("Device = STM32F103VE", ...)
                JLINK_ExecCommand("map ram 0x20000000 - 0x2000FFFF", ...)  returns 0x00 (0000ms, 0000ms total)
                JLINK_AddMirrorAreaEx(Addr = 0x00000000, Size = 0x00000000) (0000ms, 0000ms total)
                returns 0x00 (0002ms, 2536ms total)
T1FB8 002:702 JLINK_GetHWStatus(...)  returns 0x00 (0002ms, 2538ms total)
T1FB8 002:741 JLINK_GetNumBPUnits(Type = 0xFFFFFF00) >0x2F8 JTAG>TotalIRLen = 9, IRPrint = 0x0011 >0x30 JTAG> >0x210 JTAG> >0x118 JTAG> >0xD8 JTAG> >0x198 JTAG> >0x38 JTAG> >0x118 JTAG> >0xD8 JTAG> >0x2F0 JTAG> >0x2F0 JTAG> >0x198 JTAG> >0x198 JTAG>Found Cortex-M3 r1p1, Little endian. >0xD8 JTAG> >0x240 JTAG> >0x198 JTAG> >0x198 JTAG>TPIU fitted. >0x198 JTAG>ETM fitted. >0x198 JTAG>  FPUnit: 6 code (BP) slots and 2 literal slots >0x198 JTAG>  returns 0x06 (0112ms, 2540ms total)
T1FB8 002:853 JLINK_GetNumBPUnits(Type = 0xF0)  returns 0x800 (0000ms, 2652ms total)
T1FB8 002:853 JLINK_GetNumWPUnits()  returns 0x04 (0000ms, 2652ms total)
T1FB8 002:879 JLINK_GetSpeed()  returns 0x7D0 (0000ms, 2652ms total)
T1FB8 002:887 JLINK_ReadMemU32(0xE000E004, 0x0001 Items, ...) -- CPU_ReadMem(4 bytes @ 0xE000E004) -- Data:  01 00 00 00  returns 0x01 (0003ms, 2652ms total)
T1FB8 002:890 JLINK_WriteMem(0xE0001000, 0x001C Bytes, ...) -- Data:  01 00 00 00 00 00 00 00 00 00 00 00 00 00 00 00 ... -- CPU_WriteMem(28 bytes @ 0xE0001000)  returns 0x1C (0003ms, 2655ms total)
T1FB8 002:893 JLINK_ReadMem (0xE0001000, 0x001C Bytes, ...) -- CPU_ReadMem(28 bytes @ 0xE0001000) -- Data:  01 00 00 40 00 00 00 00 00 00 00 00 00 00 00 00 ...  returns 0x00 (0002ms, 2658ms total)
T1FB8 002:895 JLINK_Halt()  returns 0x00 (0000ms, 2660ms total)
T1FB8 002:895 JLINK_IsHalted()  returns TRUE (0000ms, 2660ms total)
T1FB8 002:974 JLINK_WriteMem(0x20000000, 0x0164 Bytes, ...) -- Data:  00 BE 0A E0 0D 78 2D 06 68 40 08 24 40 00 00 D3 ... -- CPU_WriteMem(356 bytes @ 0x20000000)  returns 0x164 (0007ms, 2660ms total)
T1FB8 002:981 JLINK_WriteReg(R0, 0x08000000)  returns 0x00 (0000ms, 2667ms total)
T1FB8 002:981 JLINK_WriteReg(R1, 0x007A1200)  returns 0x00 (0000ms, 2667ms total)
T1FB8 002:981 JLINK_WriteReg(R2, 0x00000001)  returns 0x00 (0000ms, 2667ms total)
T1FB8 002:981 JLINK_WriteReg(R3, 0x00000000)  returns 0x00 (0000ms, 2667ms total)
T1FB8 002:981 JLINK_WriteReg(R4, 0x00000000)  returns 0x00 (0001ms, 2667ms total)
T1FB8 002:982 JLINK_WriteReg(R5, 0x00000000)  returns 0x00 (0000ms, 2668ms total)
T1FB8 002:982 JLINK_WriteReg(R6, 0x00000000)  returns 0x00 (0000ms, 2668ms total)
T1FB8 002:982 JLINK_WriteReg(R7, 0x00000000)  returns 0x00 (0000ms, 2668ms total)
T1FB8 002:982 JLINK_WriteReg(R8, 0x00000000)  returns 0x00 (0000ms, 2668ms total)
T1FB8 002:982 JLINK_WriteReg(R9, 0x20000160)  returns 0x00 (0000ms, 2668ms total)
T1FB8 002:982 JLINK_WriteReg(R10, 0x00000000)  returns 0x00 (0000ms, 2668ms total)
T1FB8 002:982 JLINK_WriteReg(R11, 0x00000000)  returns 0x00 (0000ms, 2668ms total)
T1FB8 002:982 JLINK_WriteReg(R12, 0x00000000)  returns 0x00 (0000ms, 2668ms total)
T1FB8 002:982 JLINK_WriteReg(R13, 0x20000800)  returns 0x00 (0002ms, 2668ms total)
T1FB8 002:984 JLINK_WriteReg(R14, 0x20000001)  returns 0x00 (0000ms, 2670ms total)
T1FB8 002:984 JLINK_WriteReg(R15, 0x20000038)  returns 0x00 (0000ms, 2670ms total)
T1FB8 002:984 JLINK_WriteReg(XPSR, 0x01000000)  returns 0x00 (0000ms, 2670ms total)
T1FB8 002:984 JLINK_WriteReg(MSP, 0x20000800)  returns 0x00 (0000ms, 2670ms total)
T1FB8 002:984 JLINK_WriteReg(PSP, 0x20000800)  returns 0x00 (0000ms, 2670ms total)
T1FB8 002:984 JLINK_WriteReg(CFBP, 0x00000000)  returns 0x00 (0000ms, 2670ms total)
T1FB8 002:984 JLINK_SetBPEx(Addr = 0x20000000, Type = 0xFFFFFFF2) -- CPU_ReadMem(2 bytes @ 0x20000000)  returns 0x00000001 (0003ms, 2670ms total)
T1FB8 002:987 JLINK_Go() -- CPU_WriteMem(2 bytes @ 0x20000000) -- CPU_WriteMem(4 bytes @ 0xE0002008) -- CPU_WriteMem(4 bytes @ 0xE000200C) -- CPU_WriteMem(4 bytes @ 0xE0002010) -- CPU_WriteMem(4 bytes @ 0xE0002014) -- CPU_WriteMem(4 bytes @ 0xE0002018) -- CPU_WriteMem(4 bytes @ 0xE000201C) (0025ms, 2673ms total)
T1FB8 003:012 JLINK_IsHalted() -- CPU_ReadMem(2 bytes @ 0x20000000)  returns TRUE (0010ms, 2698ms total)
T1FB8 003:022 JLINK_ReadReg(R15)  returns 0x20000000 (0000ms, 2698ms total)
T1FB8 003:022 JLINK_ClrBPEx(BPHandle = 0x00000001)  returns 0x00 (0000ms, 2698ms total)
T1FB8 003:022 JLINK_ReadReg(R0)  returns 0x00000000 (0000ms, 2698ms total)
T1FB8 003:022 JLINK_WriteReg(R0, 0x08000000)  returns 0x00 (0000ms, 2698ms total)
T1FB8 003:022 JLINK_WriteReg(R1, 0x007A1200)  returns 0x00 (0000ms, 2698ms total)
T1FB8 003:022 JLINK_WriteReg(R2, 0x00000001)  returns 0x00 (0000ms, 2698ms total)
T1FB8 003:022 JLINK_WriteReg(R3, 0x00000000)  returns 0x00 (0000ms, 2698ms total)
T1FB8 003:022 JLINK_WriteReg(R4, 0x00000000)  returns 0x00 (0001ms, 2698ms total)
T1FB8 003:023 JLINK_WriteReg(R5, 0x00000000)  returns 0x00 (0000ms, 2699ms total)
T1FB8 003:023 JLINK_WriteReg(R6, 0x00000000)  returns 0x00 (0000ms, 2699ms total)
T1FB8 003:023 JLINK_WriteReg(R7, 0x00000000)  returns 0x00 (0000ms, 2699ms total)
T1FB8 003:023 JLINK_WriteReg(R8, 0x00000000)  returns 0x00 (0000ms, 2699ms total)
T1FB8 003:023 JLINK_WriteReg(R9, 0x20000160)  returns 0x00 (0000ms, 2699ms total)
T1FB8 003:023 JLINK_WriteReg(R10, 0x00000000)  returns 0x00 (0000ms, 2699ms total)
T1FB8 003:023 JLINK_WriteReg(R11, 0x00000000)  returns 0x00 (0000ms, 2699ms total)
T1FB8 003:023 JLINK_WriteReg(R12, 0x00000000)  returns 0x00 (0000ms, 2699ms total)
T1FB8 003:023 JLINK_WriteReg(R13, 0x20000800)  returns 0x00 (0000ms, 2699ms total)
T1FB8 003:023 JLINK_WriteReg(R14, 0x20000001)  returns 0x00 (0000ms, 2699ms total)
T1FB8 003:023 JLINK_WriteReg(R15, 0x2000007C)  returns 0x00 (0000ms, 2699ms total)
T1FB8 003:023 JLINK_WriteReg(XPSR, 0x01000000)  returns 0x00 (0000ms, 2699ms total)
T1FB8 003:023 JLINK_WriteReg(MSP, 0x20000800)  returns 0x00 (0000ms, 2699ms total)
T1FB8 003:023 JLINK_WriteReg(PSP, 0x20000800)  returns 0x00 (0000ms, 2699ms total)
T1FB8 003:023 JLINK_WriteReg(CFBP, 0x00000000)  returns 0x00 (0000ms, 2699ms total)
T1FB8 003:023 JLINK_SetBPEx(Addr = 0x20000000, Type = 0xFFFFFFF2)  returns 0x00000002 (0000ms, 2699ms total)
T1FB8 003:023 JLINK_Go() -- CPU_WriteMem(4 bytes @ 0xE0002008) -- CPU_WriteMem(4 bytes @ 0xE000200C) -- CPU_WriteMem(4 bytes @ 0xE0002010) -- CPU_WriteMem(4 bytes @ 0xE0002014) -- CPU_WriteMem(4 bytes @ 0xE0002018) -- CPU_WriteMem(4 bytes @ 0xE000201C) (0018ms, 2699ms total)
T1FB8 003:041 JLINK_IsHalted()  returns FALSE (0003ms, 2717ms total)
T1FB8 003:094 JLINK_IsHalted() -- CPU_ReadMem(2 bytes @ 0x20000000)  returns TRUE (0011ms, 2717ms total)
T1FB8 003:105 JLINK_ReadReg(R15)  returns 0x20000000 (0000ms, 2717ms total)
T1FB8 003:105 JLINK_ClrBPEx(BPHandle = 0x00000002)  returns 0x00 (0000ms, 2717ms total)
T1FB8 003:105 JLINK_ReadReg(R0)  returns 0x00000000 (0000ms, 2717ms total)
T1FB8 003:155 JLINK_WriteReg(R0, 0x00000001)  returns 0x00 (0000ms, 2717ms total)
T1FB8 003:155 JLINK_WriteReg(R1, 0x007A1200)  returns 0x00 (0000ms, 2717ms total)
T1FB8 003:155 JLINK_WriteReg(R2, 0x00000001)  returns 0x00 (0000ms, 2717ms total)
T1FB8 003:155 JLINK_WriteReg(R3, 0x00000000)  returns 0x00 (0000ms, 2717ms total)
T1FB8 003:155 JLINK_WriteReg(R4, 0x00000000)  returns 0x00 (0000ms, 2717ms total)
T1FB8 003:155 JLINK_WriteReg(R5, 0x00000000)  returns 0x00 (0000ms, 2717ms total)
T1FB8 003:155 JLINK_WriteReg(R6, 0x00000000)  returns 0x00 (0000ms, 2717ms total)
T1FB8 003:155 JLINK_WriteReg(R7, 0x00000000)  returns 0x00 (0000ms, 2717ms total)
T1FB8 003:155 JLINK_WriteReg(R8, 0x00000000)  returns 0x00 (0000ms, 2717ms total)
T1FB8 003:155 JLINK_WriteReg(R9, 0x20000160)  returns 0x00 (0000ms, 2717ms total)
T1FB8 003:155 JLINK_WriteReg(R10, 0x00000000)  returns 0x00 (0000ms, 2717ms total)
T1FB8 003:155 JLINK_WriteReg(R11, 0x00000000)  returns 0x00 (0000ms, 2717ms total)
T1FB8 003:155 JLINK_WriteReg(R12, 0x00000000)  returns 0x00 (0000ms, 2717ms total)
T1FB8 003:155 JLINK_WriteReg(R13, 0x20000800)  returns 0x00 (0001ms, 2717ms total)
T1FB8 003:156 JLINK_WriteReg(R14, 0x20000001)  returns 0x00 (0000ms, 2718ms total)
T1FB8 003:156 JLINK_WriteReg(R15, 0x2000006A)  returns 0x00 (0000ms, 2718ms total)
T1FB8 003:156 JLINK_WriteReg(XPSR, 0x01000000)  returns 0x00 (0000ms, 2718ms total)
T1FB8 003:156 JLINK_WriteReg(MSP, 0x20000800)  returns 0x00 (0000ms, 2718ms total)
T1FB8 003:156 JLINK_WriteReg(PSP, 0x20000800)  returns 0x00 (0000ms, 2718ms total)
T1FB8 003:156 JLINK_WriteReg(CFBP, 0x00000000)  returns 0x00 (0000ms, 2718ms total)
T1FB8 003:156 JLINK_SetBPEx(Addr = 0x20000000, Type = 0xFFFFFFF2)  returns 0x00000003 (0000ms, 2718ms total)
T1FB8 003:156 JLINK_Go() -- CPU_WriteMem(4 bytes @ 0xE0002008) -- CPU_WriteMem(4 bytes @ 0xE000200C) -- CPU_WriteMem(4 bytes @ 0xE0002010) -- CPU_WriteMem(4 bytes @ 0xE0002014) -- CPU_WriteMem(4 bytes @ 0xE0002018) -- CPU_WriteMem(4 bytes @ 0xE000201C) (0017ms, 2718ms total)
T1FB8 003:173 JLINK_IsHalted() -- CPU_ReadMem(2 bytes @ 0x20000000)  returns TRUE (0011ms, 2735ms total)
T1FB8 003:184 JLINK_ReadReg(R15)  returns 0x20000000 (0000ms, 2735ms total)
T1FB8 003:184 JLINK_ClrBPEx(BPHandle = 0x00000003)  returns 0x00 (0000ms, 2735ms total)
T1FB8 003:184 JLINK_ReadReg(R0)  returns 0x00000000 (0000ms, 2735ms total)
T1FB8 003:198 JLINK_WriteMem(0x20000000, 0x0164 Bytes, ...) -- Data:  00 BE 0A E0 0D 78 2D 06 68 40 08 24 40 00 00 D3 ... -- CPU_WriteMem(356 bytes @ 0x20000000)  returns 0x164 (0006ms, 2735ms total)
T1FB8 003:204 JLINK_WriteReg(R0, 0x08000000)  returns 0x00 (0000ms, 2741ms total)
T1FB8 003:204 JLINK_WriteReg(R1, 0x007A1200)  returns 0x00 (0000ms, 2741ms total)
T1FB8 003:204 JLINK_WriteReg(R2, 0x00000002)  returns 0x00 (0000ms, 2741ms total)
T1FB8 003:204 JLINK_WriteReg(R3, 0x00000000)  returns 0x00 (0000ms, 2741ms total)
T1FB8 003:204 JLINK_WriteReg(R4, 0x00000000)  returns 0x00 (0000ms, 2741ms total)
T1FB8 003:204 JLINK_WriteReg(R5, 0x00000000)  returns 0x00 (0000ms, 2741ms total)
T1FB8 003:204 JLINK_WriteReg(R6, 0x00000000)  returns 0x00 (0000ms, 2741ms total)
T1FB8 003:204 JLINK_WriteReg(R7, 0x00000000)  returns 0x00 (0000ms, 2741ms total)
T1FB8 003:204 JLINK_WriteReg(R8, 0x00000000)  returns 0x00 (0000ms, 2741ms total)
T1FB8 003:204 JLINK_WriteReg(R9, 0x20000160)  returns 0x00 (0000ms, 2741ms total)
T1FB8 003:204 JLINK_WriteReg(R10, 0x00000000)  returns 0x00 (0000ms, 2741ms total)
T1FB8 003:204 JLINK_WriteReg(R11, 0x00000000)  returns 0x00 (0000ms, 2741ms total)
T1FB8 003:204 JLINK_WriteReg(R12, 0x00000000)  returns 0x00 (0000ms, 2741ms total)
T1FB8 003:204 JLINK_WriteReg(R13, 0x20000800)  returns 0x00 (0000ms, 2741ms total)
T1FB8 003:204 JLINK_WriteReg(R14, 0x20000001)  returns 0x00 (0000ms, 2741ms total)
T1FB8 003:204 JLINK_WriteReg(R15, 0x20000038)  returns 0x00 (0000ms, 2741ms total)
T1FB8 003:204 JLINK_WriteReg(XPSR, 0x01000000)  returns 0x00 (0000ms, 2741ms total)
T1FB8 003:204 JLINK_WriteReg(MSP, 0x20000800)  returns 0x00 (0000ms, 2741ms total)
T1FB8 003:204 JLINK_WriteReg(PSP, 0x20000800)  returns 0x00 (0000ms, 2741ms total)
T1FB8 003:204 JLINK_WriteReg(CFBP, 0x00000000)  returns 0x00 (0000ms, 2741ms total)
T1FB8 003:204 JLINK_SetBPEx(Addr = 0x20000000, Type = 0xFFFFFFF2) -- CPU_ReadMem(2 bytes @ 0x20000000)  returns 0x00000004 (0004ms, 2741ms total)
T1FB8 003:208 JLINK_Go() -- CPU_WriteMem(2 bytes @ 0x20000000) -- CPU_WriteMem(4 bytes @ 0xE0002008) -- CPU_WriteMem(4 bytes @ 0xE000200C) -- CPU_WriteMem(4 bytes @ 0xE0002010) -- CPU_WriteMem(4 bytes @ 0xE0002014) -- CPU_WriteMem(4 bytes @ 0xE0002018) -- CPU_WriteMem(4 bytes @ 0xE000201C) (0038ms, 2745ms total)
T1FB8 003:246 JLINK_IsHalted() -- CPU_ReadMem(2 bytes @ 0x20000000)  returns TRUE (0010ms, 2783ms total)
T1FB8 003:256 JLINK_ReadReg(R15)  returns 0x20000000 (0000ms, 2783ms total)
T1FB8 003:256 JLINK_ClrBPEx(BPHandle = 0x00000004)  returns 0x00 (0000ms, 2783ms total)
T1FB8 003:256 JLINK_ReadReg(R0)  returns 0x00000000 (0000ms, 2783ms total)
T1FB8 003:256 JLINK_WriteMem(0x20000164, 0x0400 Bytes, ...) -- Data:  70 FF 00 20 45 01 00 08 B7 05 00 08 AF 05 00 08 ... -- CPU_WriteMem(1024 bytes @ 0x20000164)  returns 0x400 (0010ms, 2783ms total)
T1FB8 003:266 JLINK_WriteReg(R0, 0x08000000)  returns 0x00 (0000ms, 2793ms total)
T1FB8 003:266 JLINK_WriteReg(R1, 0x00000400)  returns 0x00 (0000ms, 2793ms total)
T1FB8 003:266 JLINK_WriteReg(R2, 0x20000164)  returns 0x00 (0000ms, 2793ms total)
T1FB8 003:266 JLINK_WriteReg(R3, 0x00000000)  returns 0x00 (0000ms, 2793ms total)
T1FB8 003:266 JLINK_WriteReg(R4, 0x00000000)  returns 0x00 (0000ms, 2793ms total)
T1FB8 003:266 JLINK_WriteReg(R5, 0x00000000)  returns 0x00 (0000ms, 2793ms total)
T1FB8 003:266 JLINK_WriteReg(R6, 0x00000000)  returns 0x00 (0000ms, 2793ms total)
T1FB8 003:266 JLINK_WriteReg(R7, 0x00000000)  returns 0x00 (0000ms, 2793ms total)
T1FB8 003:266 JLINK_WriteReg(R8, 0x00000000)  returns 0x00 (0000ms, 2793ms total)
T1FB8 003:266 JLINK_WriteReg(R9, 0x20000160)  returns 0x00 (0000ms, 2793ms total)
T1FB8 003:266 JLINK_WriteReg(R10, 0x00000000)  returns 0x00 (0000ms, 2793ms total)
T1FB8 003:266 JLINK_WriteReg(R11, 0x00000000)  returns 0x00 (0000ms, 2793ms total)
T1FB8 003:266 JLINK_WriteReg(R12, 0x00000000)  returns 0x00 (0000ms, 2793ms total)
T1FB8 003:266 JLINK_WriteReg(R13, 0x20000800)  returns 0x00 (0000ms, 2793ms total)
T1FB8 003:266 JLINK_WriteReg(R14, 0x20000001)  returns 0x00 (0000ms, 2793ms total)
T1FB8 003:266 JLINK_WriteReg(R15, 0x200000F4)  returns 0x00 (0000ms, 2793ms total)
T1FB8 003:266 JLINK_WriteReg(XPSR, 0x01000000)  returns 0x00 (0000ms, 2793ms total)
T1FB8 003:266 JLINK_WriteReg(MSP, 0x20000800)  returns 0x00 (0000ms, 2793ms total)
T1FB8 003:266 JLINK_WriteReg(PSP, 0x20000800)  returns 0x00 (0000ms, 2793ms total)
T1FB8 003:267 JLINK_WriteReg(CFBP, 0x00000000)  returns 0x00 (0000ms, 2793ms total)
T1FB8 003:267 JLINK_SetBPEx(Addr = 0x20000000, Type = 0xFFFFFFF2)  returns 0x00000005 (0000ms, 2793ms total)
T1FB8 003:267 JLINK_Go() -- CPU_WriteMem(4 bytes @ 0xE0002008) -- CPU_WriteMem(4 bytes @ 0xE000200C) -- CPU_WriteMem(4 bytes @ 0xE0002010) -- CPU_WriteMem(4 bytes @ 0xE0002014) -- CPU_WriteMem(4 bytes @ 0xE0002018) -- CPU_WriteMem(4 bytes @ 0xE000201C) (0019ms, 2793ms total)
T1FB8 003:286 JLINK_IsHalted()  returns FALSE (0002ms, 2812ms total)
T1FB8 003:338 JLINK_IsHalted() -- CPU_ReadMem(2 bytes @ 0x20000000)  returns TRUE (0010ms, 2812ms total)
T1FB8 003:348 JLINK_ReadReg(R15)  returns 0x20000000 (0000ms, 2812ms total)
T1FB8 003:348 JLINK_ClrBPEx(BPHandle = 0x00000005)  returns 0x00 (0000ms, 2812ms total)
T1FB8 003:348 JLINK_ReadReg(R0)  returns 0x00000000 (0000ms, 2812ms total)
T1FB8 003:348 JLINK_WriteMem(0x20000164, 0x0400 Bytes, ...) -- Data:  13 48 00 F0 49 F8 4F F4 84 50 AD F8 00 00 69 46 ... -- CPU_WriteMem(1024 bytes @ 0x20000164)  returns 0x400 (0009ms, 2812ms total)
T1FB8 003:357 JLINK_WriteReg(R0, 0x08000400)  returns 0x00 (0000ms, 2821ms total)
T1FB8 003:357 JLINK_WriteReg(R1, 0x00000400)  returns 0x00 (0000ms, 2821ms total)
T1FB8 003:357 JLINK_WriteReg(R2, 0x20000164)  returns 0x00 (0000ms, 2821ms total)
T1FB8 003:357 JLINK_WriteReg(R3, 0x00000000)  returns 0x00 (0000ms, 2821ms total)
T1FB8 003:357 JLINK_WriteReg(R4, 0x00000000)  returns 0x00 (0000ms, 2821ms total)
T1FB8 003:357 JLINK_WriteReg(R5, 0x00000000)  returns 0x00 (0000ms, 2821ms total)
T1FB8 003:357 JLINK_WriteReg(R6, 0x00000000)  returns 0x00 (0000ms, 2821ms total)
T1FB8 003:357 JLINK_WriteReg(R7, 0x00000000)  returns 0x00 (0000ms, 2821ms total)
T1FB8 003:357 JLINK_WriteReg(R8, 0x00000000)  returns 0x00 (0000ms, 2821ms total)
T1FB8 003:357 JLINK_WriteReg(R9, 0x20000160)  returns 0x00 (0001ms, 2821ms total)
T1FB8 003:358 JLINK_WriteReg(R10, 0x00000000)  returns 0x00 (0000ms, 2822ms total)
T1FB8 003:358 JLINK_WriteReg(R11, 0x00000000)  returns 0x00 (0000ms, 2822ms total)
T1FB8 003:358 JLINK_WriteReg(R12, 0x00000000)  returns 0x00 (0000ms, 2822ms total)
T1FB8 003:358 JLINK_WriteReg(R13, 0x20000800)  returns 0x00 (0000ms, 2822ms total)
T1FB8 003:358 JLINK_WriteReg(R14, 0x20000001)  returns 0x00 (0000ms, 2822ms total)
T1FB8 003:358 JLINK_WriteReg(R15, 0x200000F4)  returns 0x00 (0000ms, 2822ms total)
T1FB8 003:358 JLINK_WriteReg(XPSR, 0x01000000)  returns 0x00 (0000ms, 2822ms total)
T1FB8 003:358 JLINK_WriteReg(MSP, 0x20000800)  returns 0x00 (0000ms, 2822ms total)
T1FB8 003:358 JLINK_WriteReg(PSP, 0x20000800)  returns 0x00 (0000ms, 2822ms total)
T1FB8 003:358 JLINK_WriteReg(CFBP, 0x00000000)  returns 0x00 (0000ms, 2822ms total)
T1FB8 003:358 JLINK_SetBPEx(Addr = 0x20000000, Type = 0xFFFFFFF2)  returns 0x00000006 (0000ms, 2822ms total)
T1FB8 003:358 JLINK_Go() -- CPU_WriteMem(4 bytes @ 0xE0002008) -- CPU_WriteMem(4 bytes @ 0xE000200C) -- CPU_WriteMem(4 bytes @ 0xE0002010) -- CPU_WriteMem(4 bytes @ 0xE0002014) -- CPU_WriteMem(4 bytes @ 0xE0002018) -- CPU_WriteMem(4 bytes @ 0xE000201C) (0025ms, 2822ms total)
T1FB8 003:383 JLINK_IsHalted()  returns FALSE (0004ms, 2847ms total)
T1FB8 003:443 JLINK_IsHalted() -- CPU_ReadMem(2 bytes @ 0x20000000)  returns TRUE (0013ms, 2847ms total)
T1FB8 003:456 JLINK_ReadReg(R15)  returns 0x20000000 (0000ms, 2847ms total)
T1FB8 003:456 JLINK_ClrBPEx(BPHandle = 0x00000006)  returns 0x00 (0000ms, 2847ms total)
T1FB8 003:456 JLINK_ReadReg(R0)  returns 0x00000000 (0000ms, 2847ms total)
T1FB8 003:456 JLINK_WriteMem(0x20000164, 0x0400 Bytes, ...) -- Data:  04 4B 9A 61 04 E0 03 4A 92 69 82 43 01 4B 9A 61 ... -- CPU_WriteMem(1024 bytes @ 0x20000164)  returns 0x400 (0008ms, 2847ms total)
T1FB8 003:464 JLINK_WriteReg(R0, 0x08000800)  returns 0x00 (0000ms, 2855ms total)
T1FB8 003:464 JLINK_WriteReg(R1, 0x00000400)  returns 0x00 (0000ms, 2855ms total)
T1FB8 003:464 JLINK_WriteReg(R2, 0x20000164)  returns 0x00 (0000ms, 2855ms total)
T1FB8 003:464 JLINK_WriteReg(R3, 0x00000000)  returns 0x00 (0000ms, 2855ms total)
T1FB8 003:464 JLINK_WriteReg(R4, 0x00000000)  returns 0x00 (0000ms, 2855ms total)
T1FB8 003:464 JLINK_WriteReg(R5, 0x00000000)  returns 0x00 (0000ms, 2855ms total)
T1FB8 003:464 JLINK_WriteReg(R6, 0x00000000)  returns 0x00 (0000ms, 2855ms total)
T1FB8 003:464 JLINK_WriteReg(R7, 0x00000000)  returns 0x00 (0000ms, 2855ms total)
T1FB8 003:464 JLINK_WriteReg(R8, 0x00000000)  returns 0x00 (0000ms, 2855ms total)
T1FB8 003:465 JLINK_WriteReg(R9, 0x20000160)  returns 0x00 (0000ms, 2856ms total)
T1FB8 003:465 JLINK_WriteReg(R10, 0x00000000)  returns 0x00 (0000ms, 2856ms total)
T1FB8 003:465 JLINK_WriteReg(R11, 0x00000000)  returns 0x00 (0000ms, 2856ms total)
T1FB8 003:465 JLINK_WriteReg(R12, 0x00000000)  returns 0x00 (0000ms, 2856ms total)
T1FB8 003:465 JLINK_WriteReg(R13, 0x20000800)  returns 0x00 (0000ms, 2856ms total)
T1FB8 003:465 JLINK_WriteReg(R14, 0x20000001)  returns 0x00 (0000ms, 2856ms total)
T1FB8 003:465 JLINK_WriteReg(R15, 0x200000F4)  returns 0x00 (0000ms, 2856ms total)
T1FB8 003:465 JLINK_WriteReg(XPSR, 0x01000000)  returns 0x00 (0000ms, 2856ms total)
T1FB8 003:465 JLINK_WriteReg(MSP, 0x20000800)  returns 0x00 (0000ms, 2856ms total)
T1FB8 003:465 JLINK_WriteReg(PSP, 0x20000800)  returns 0x00 (0000ms, 2856ms total)
T1FB8 003:465 JLINK_WriteReg(CFBP, 0x00000000)  returns 0x00 (0000ms, 2856ms total)
T1FB8 003:465 JLINK_SetBPEx(Addr = 0x20000000, Type = 0xFFFFFFF2)  returns 0x00000007 (0000ms, 2856ms total)
T1FB8 003:465 JLINK_Go() -- CPU_WriteMem(4 bytes @ 0xE0002008) -- CPU_WriteMem(4 bytes @ 0xE000200C) -- CPU_WriteMem(4 bytes @ 0xE0002010) -- CPU_WriteMem(4 bytes @ 0xE0002014) -- CPU_WriteMem(4 bytes @ 0xE0002018) -- CPU_WriteMem(4 bytes @ 0xE000201C) (0021ms, 2856ms total)
T1FB8 003:486 JLINK_IsHalted()  returns FALSE (0003ms, 2877ms total)
T1FB8 003:539 JLINK_IsHalted() -- CPU_ReadMem(2 bytes @ 0x20000000)  returns TRUE (0015ms, 2877ms total)
T1FB8 003:554 JLINK_ReadReg(R15)  returns 0x20000000 (0000ms, 2877ms total)
T1FB8 003:554 JLINK_ClrBPEx(BPHandle = 0x00000007)  returns 0x00 (0000ms, 2877ms total)
T1FB8 003:554 JLINK_ReadReg(R0)  returns 0x00000000 (0000ms, 2877ms total)
T1FB8 003:555 JLINK_WriteMem(0x20000164, 0x0400 Bytes, ...) -- Data:  B0 89 04 43 AC 82 01 A8 FF F7 0E FE 1F 48 87 42 ... -- CPU_WriteMem(1024 bytes @ 0x20000164)  returns 0x400 (0008ms, 2877ms total)
T1FB8 003:563 JLINK_WriteReg(R0, 0x08000C00)  returns 0x00 (0000ms, 2885ms total)
T1FB8 003:563 JLINK_WriteReg(R1, 0x00000400)  returns 0x00 (0000ms, 2885ms total)
T1FB8 003:563 JLINK_WriteReg(R2, 0x20000164)  returns 0x00 (0000ms, 2885ms total)
T1FB8 003:563 JLINK_WriteReg(R3, 0x00000000)  returns 0x00 (0000ms, 2885ms total)
T1FB8 003:563 JLINK_WriteReg(R4, 0x00000000)  returns 0x00 (0000ms, 2885ms total)
T1FB8 003:563 JLINK_WriteReg(R5, 0x00000000)  returns 0x00 (0000ms, 2885ms total)
T1FB8 003:563 JLINK_WriteReg(R6, 0x00000000)  returns 0x00 (0000ms, 2885ms total)
T1FB8 003:563 JLINK_WriteReg(R7, 0x00000000)  returns 0x00 (0000ms, 2885ms total)
T1FB8 003:563 JLINK_WriteReg(R8, 0x00000000)  returns 0x00 (0000ms, 2885ms total)
T1FB8 003:563 JLINK_WriteReg(R9, 0x20000160)  returns 0x00 (0000ms, 2885ms total)
T1FB8 003:563 JLINK_WriteReg(R10, 0x00000000)  returns 0x00 (0000ms, 2885ms total)
T1FB8 003:563 JLINK_WriteReg(R11, 0x00000000)  returns 0x00 (0000ms, 2885ms total)
T1FB8 003:563 JLINK_WriteReg(R12, 0x00000000)  returns 0x00 (0000ms, 2885ms total)
T1FB8 003:563 JLINK_WriteReg(R13, 0x20000800)  returns 0x00 (0000ms, 2885ms total)
T1FB8 003:563 JLINK_WriteReg(R14, 0x20000001)  returns 0x00 (0000ms, 2885ms total)
T1FB8 003:563 JLINK_WriteReg(R15, 0x200000F4)  returns 0x00 (0000ms, 2885ms total)
T1FB8 003:563 JLINK_WriteReg(XPSR, 0x01000000)  returns 0x00 (0000ms, 2885ms total)
T1FB8 003:563 JLINK_WriteReg(MSP, 0x20000800)  returns 0x00 (0000ms, 2885ms total)
T1FB8 003:563 JLINK_WriteReg(PSP, 0x20000800)  returns 0x00 (0000ms, 2885ms total)
T1FB8 003:563 JLINK_WriteReg(CFBP, 0x00000000)  returns 0x00 (0000ms, 2885ms total)
T1FB8 003:563 JLINK_SetBPEx(Addr = 0x20000000, Type = 0xFFFFFFF2)  returns 0x00000008 (0001ms, 2885ms total)
T1FB8 003:564 JLINK_Go() -- CPU_WriteMem(4 bytes @ 0xE0002008) -- CPU_WriteMem(4 bytes @ 0xE000200C) -- CPU_WriteMem(4 bytes @ 0xE0002010) -- CPU_WriteMem(4 bytes @ 0xE0002014) -- CPU_WriteMem(4 bytes @ 0xE0002018) -- CPU_WriteMem(4 bytes @ 0xE000201C) (0047ms, 2886ms total)
T1FB8 003:611 JLINK_IsHalted()  returns FALSE (0003ms, 2933ms total)
T1FB8 003:673 JLINK_IsHalted() -- CPU_ReadMem(2 bytes @ 0x20000000)  returns TRUE (0026ms, 2933ms total)
T1FB8 003:699 JLINK_ReadReg(R15)  returns 0x20000000 (0000ms, 2933ms total)
T1FB8 003:699 JLINK_ClrBPEx(BPHandle = 0x00000008)  returns 0x00 (0000ms, 2933ms total)
T1FB8 003:699 JLINK_ReadReg(R0)  returns 0x00000000 (0000ms, 2933ms total)
T1FB8 003:700 JLINK_WriteMem(0x20000164, 0x0400 Bytes, ...) -- Data:  04 D0 01 CF 00 21 03 2A 06 D0 07 E0 FF 1D 27 F0 ... -- CPU_WriteMem(1024 bytes @ 0x20000164)  returns 0x400 (0010ms, 2933ms total)
T1FB8 003:710 JLINK_WriteReg(R0, 0x08001000)  returns 0x00 (0000ms, 2943ms total)
T1FB8 003:710 JLINK_WriteReg(R1, 0x00000400)  returns 0x00 (0000ms, 2943ms total)
T1FB8 003:710 JLINK_WriteReg(R2, 0x20000164)  returns 0x00 (0000ms, 2943ms total)
T1FB8 003:710 JLINK_WriteReg(R3, 0x00000000)  returns 0x00 (0000ms, 2943ms total)
T1FB8 003:710 JLINK_WriteReg(R4, 0x00000000)  returns 0x00 (0000ms, 2943ms total)
T1FB8 003:710 JLINK_WriteReg(R5, 0x00000000)  returns 0x00 (0000ms, 2943ms total)
T1FB8 003:710 JLINK_WriteReg(R6, 0x00000000)  returns 0x00 (0000ms, 2943ms total)
T1FB8 003:710 JLINK_WriteReg(R7, 0x00000000)  returns 0x00 (0000ms, 2943ms total)
T1FB8 003:710 JLINK_WriteReg(R8, 0x00000000)  returns 0x00 (0000ms, 2943ms total)
T1FB8 003:710 JLINK_WriteReg(R9, 0x20000160)  returns 0x00 (0000ms, 2943ms total)
T1FB8 003:710 JLINK_WriteReg(R10, 0x00000000)  returns 0x00 (0000ms, 2943ms total)
T1FB8 003:710 JLINK_WriteReg(R11, 0x00000000)  returns 0x00 (0001ms, 2943ms total)
T1FB8 003:711 JLINK_WriteReg(R12, 0x00000000)  returns 0x00 (0000ms, 2944ms total)
T1FB8 003:711 JLINK_WriteReg(R13, 0x20000800)  returns 0x00 (0000ms, 2944ms total)
T1FB8 003:711 JLINK_WriteReg(R14, 0x20000001)  returns 0x00 (0000ms, 2944ms total)
T1FB8 003:711 JLINK_WriteReg(R15, 0x200000F4)  returns 0x00 (0000ms, 2944ms total)
T1FB8 003:711 JLINK_WriteReg(XPSR, 0x01000000)  returns 0x00 (0000ms, 2944ms total)
T1FB8 003:712 JLINK_WriteReg(MSP, 0x20000800)  returns 0x00 (0000ms, 2944ms total)
T1FB8 003:712 JLINK_WriteReg(PSP, 0x20000800)  returns 0x00 (0000ms, 2944ms total)
T1FB8 003:712 JLINK_WriteReg(CFBP, 0x00000000)  returns 0x00 (0000ms, 2944ms total)
T1FB8 003:712 JLINK_SetBPEx(Addr = 0x20000000, Type = 0xFFFFFFF2)  returns 0x00000009 (0001ms, 2944ms total)
T1FB8 003:713 JLINK_Go() -- CPU_WriteMem(4 bytes @ 0xE0002008) -- CPU_WriteMem(4 bytes @ 0xE000200C) -- CPU_WriteMem(4 bytes @ 0xE0002010) -- CPU_WriteMem(4 bytes @ 0xE0002014) -- CPU_WriteMem(4 bytes @ 0xE0002018) -- CPU_WriteMem(4 bytes @ 0xE000201C) (0043ms, 2945ms total)
T1FB8 003:756 JLINK_IsHalted()  returns FALSE (0003ms, 2988ms total)
T1FB8 003:809 JLINK_IsHalted() -- CPU_ReadMem(2 bytes @ 0x20000000)  returns TRUE (0014ms, 2988ms total)
T1FB8 003:823 JLINK_ReadReg(R15)  returns 0x20000000 (0001ms, 2988ms total)
T1FB8 003:824 JLINK_ClrBPEx(BPHandle = 0x00000009)  returns 0x00 (0000ms, 2989ms total)
T1FB8 003:824 JLINK_ReadReg(R0)  returns 0x00000000 (0000ms, 2989ms total)
T1FB8 003:824 JLINK_WriteMem(0x20000164, 0x0400 Bytes, ...) -- Data:  4D 41 41 44 52 33 20 3D 20 25 78 0D 0A 00 00 00 ... -- CPU_WriteMem(1024 bytes @ 0x20000164)  returns 0x400 (0010ms, 2989ms total)
T1FB8 003:834 JLINK_WriteReg(R0, 0x08001400)  returns 0x00 (0000ms, 2999ms total)
T1FB8 003:834 JLINK_WriteReg(R1, 0x00000400)  returns 0x00 (0000ms, 2999ms total)
T1FB8 003:834 JLINK_WriteReg(R2, 0x20000164)  returns 0x00 (0000ms, 2999ms total)
T1FB8 003:834 JLINK_WriteReg(R3, 0x00000000)  returns 0x00 (0000ms, 2999ms total)
T1FB8 003:834 JLINK_WriteReg(R4, 0x00000000)  returns 0x00 (0000ms, 2999ms total)
T1FB8 003:834 JLINK_WriteReg(R5, 0x00000000)  returns 0x00 (0000ms, 2999ms total)
T1FB8 003:834 JLINK_WriteReg(R6, 0x00000000)  returns 0x00 (0001ms, 2999ms total)
T1FB8 003:835 JLINK_WriteReg(R7, 0x00000000)  returns 0x00 (0000ms, 3000ms total)
T1FB8 003:835 JLINK_WriteReg(R8, 0x00000000)  returns 0x00 (0000ms, 3000ms total)
T1FB8 003:835 JLINK_WriteReg(R9, 0x20000160)  returns 0x00 (0000ms, 3000ms total)
T1FB8 003:835 JLINK_WriteReg(R10, 0x00000000)  returns 0x00 (0000ms, 3000ms total)
T1FB8 003:835 JLINK_WriteReg(R11, 0x00000000)  returns 0x00 (0000ms, 3000ms total)
T1FB8 003:835 JLINK_WriteReg(R12, 0x00000000)  returns 0x00 (0000ms, 3000ms total)
T1FB8 003:835 JLINK_WriteReg(R13, 0x20000800)  returns 0x00 (0000ms, 3000ms total)
T1FB8 003:835 JLINK_WriteReg(R14, 0x20000001)  returns 0x00 (0000ms, 3000ms total)
T1FB8 003:835 JLINK_WriteReg(R15, 0x200000F4)  returns 0x00 (0000ms, 3000ms total)
T1FB8 003:836 JLINK_WriteReg(XPSR, 0x01000000)  returns 0x00 (0000ms, 3001ms total)
T1FB8 003:836 JLINK_WriteReg(MSP, 0x20000800)  returns 0x00 (0000ms, 3001ms total)
T1FB8 003:836 JLINK_WriteReg(PSP, 0x20000800)  returns 0x00 (0000ms, 3001ms total)
T1FB8 003:836 JLINK_WriteReg(CFBP, 0x00000000)  returns 0x00 (0000ms, 3001ms total)
T1FB8 003:836 JLINK_SetBPEx(Addr = 0x20000000, Type = 0xFFFFFFF2)  returns 0x0000000A (0000ms, 3001ms total)
T1FB8 003:836 JLINK_Go() -- CPU_WriteMem(4 bytes @ 0xE0002008) -- CPU_WriteMem(4 bytes @ 0xE000200C) -- CPU_WriteMem(4 bytes @ 0xE0002010) -- CPU_WriteMem(4 bytes @ 0xE0002014) -- CPU_WriteMem(4 bytes @ 0xE0002018) -- CPU_WriteMem(4 bytes @ 0xE000201C) (0027ms, 3001ms total)
T1FB8 003:863 JLINK_IsHalted()  returns FALSE (0003ms, 3028ms total)
T1FB8 003:916 JLINK_IsHalted() -- CPU_ReadMem(2 bytes @ 0x20000000)  returns TRUE (0014ms, 3028ms total)
T1FB8 003:930 JLINK_ReadReg(R15)  returns 0x20000000 (0000ms, 3028ms total)
T1FB8 003:930 JLINK_ClrBPEx(BPHandle = 0x0000000A)  returns 0x00 (0000ms, 3028ms total)
T1FB8 003:930 JLINK_ReadReg(R0)  returns 0x00000000 (0000ms, 3028ms total)
T1FB8 003:930 JLINK_WriteMem(0x20000164, 0x0400 Bytes, ...) -- Data:  B0 F5 80 7F 03 D0 B0 F5 00 7F 53 D1 4C E0 00 BF ... -- CPU_WriteMem(1024 bytes @ 0x20000164)  returns 0x400 (0009ms, 3028ms total)
T1FB8 003:939 JLINK_WriteReg(R0, 0x08001800)  returns 0x00 (0000ms, 3037ms total)
T1FB8 003:939 JLINK_WriteReg(R1, 0x00000400)  returns 0x00 (0000ms, 3037ms total)
T1FB8 003:939 JLINK_WriteReg(R2, 0x20000164)  returns 0x00 (0000ms, 3037ms total)
T1FB8 003:939 JLINK_WriteReg(R3, 0x00000000)  returns 0x00 (0001ms, 3037ms total)
T1FB8 003:940 JLINK_WriteReg(R4, 0x00000000)  returns 0x00 (0000ms, 3038ms total)
T1FB8 003:940 JLINK_WriteReg(R5, 0x00000000)  returns 0x00 (0000ms, 3038ms total)
T1FB8 003:940 JLINK_WriteReg(R6, 0x00000000)  returns 0x00 (0000ms, 3038ms total)
T1FB8 003:940 JLINK_WriteReg(R7, 0x00000000)  returns 0x00 (0000ms, 3038ms total)
T1FB8 003:940 JLINK_WriteReg(R8, 0x00000000)  returns 0x00 (0000ms, 3038ms total)
T1FB8 003:940 JLINK_WriteReg(R9, 0x20000160)  returns 0x00 (0000ms, 3038ms total)
T1FB8 003:940 JLINK_WriteReg(R10, 0x00000000)  returns 0x00 (0000ms, 3038ms total)
T1FB8 003:940 JLINK_WriteReg(R11, 0x00000000)  returns 0x00 (0000ms, 3038ms total)
T1FB8 003:940 JLINK_WriteReg(R12, 0x00000000)  returns 0x00 (0000ms, 3038ms total)
T1FB8 003:940 JLINK_WriteReg(R13, 0x20000800)  returns 0x00 (0000ms, 3038ms total)
T1FB8 003:940 JLINK_WriteReg(R14, 0x20000001)  returns 0x00 (0000ms, 3038ms total)
T1FB8 003:940 JLINK_WriteReg(R15, 0x200000F4)  returns 0x00 (0000ms, 3038ms total)
T1FB8 003:940 JLINK_WriteReg(XPSR, 0x01000000)  returns 0x00 (0001ms, 3038ms total)
T1FB8 003:941 JLINK_WriteReg(MSP, 0x20000800)  returns 0x00 (0000ms, 3039ms total)
T1FB8 003:941 JLINK_WriteReg(PSP, 0x20000800)  returns 0x00 (0000ms, 3039ms total)
T1FB8 003:941 JLINK_WriteReg(CFBP, 0x00000000)  returns 0x00 (0000ms, 3039ms total)
T1FB8 003:941 JLINK_SetBPEx(Addr = 0x20000000, Type = 0xFFFFFFF2)  returns 0x0000000B (0000ms, 3039ms total)
T1FB8 003:941 JLINK_Go() -- CPU_WriteMem(4 bytes @ 0xE0002008) -- CPU_WriteMem(4 bytes @ 0xE000200C) -- CPU_WriteMem(4 bytes @ 0xE0002010) -- CPU_WriteMem(4 bytes @ 0xE0002014) -- CPU_WriteMem(4 bytes @ 0xE0002018) -- CPU_WriteMem(4 bytes @ 0xE000201C) (0025ms, 3039ms total)
T1FB8 003:966 JLINK_IsHalted()  returns FALSE (0003ms, 3064ms total)
T1FB8 004:019 JLINK_IsHalted() -- CPU_ReadMem(2 bytes @ 0x20000000)  returns TRUE (0013ms, 3064ms total)
T1FB8 004:032 JLINK_ReadReg(R15)  returns 0x20000000 (0000ms, 3064ms total)
T1FB8 004:032 JLINK_ClrBPEx(BPHandle = 0x0000000B)  returns 0x00 (0000ms, 3064ms total)
T1FB8 004:032 JLINK_ReadReg(R0)  returns 0x00000000 (0000ms, 3064ms total)
T1FB8 004:032 JLINK_WriteMem(0x20000164, 0x0400 Bytes, ...) -- Data:  47 48 8C 30 FF F7 86 F8 07 E0 00 BF 65 A0 FF F7 ... -- CPU_WriteMem(1024 bytes @ 0x20000164)  returns 0x400 (0009ms, 3064ms total)
T1FB8 004:041 JLINK_WriteReg(R0, 0x08001C00)  returns 0x00 (0000ms, 3073ms total)
T1FB8 004:041 JLINK_WriteReg(R1, 0x00000400)  returns 0x00 (0000ms, 3073ms total)
T1FB8 004:041 JLINK_WriteReg(R2, 0x20000164)  returns 0x00 (0000ms, 3073ms total)
T1FB8 004:041 JLINK_WriteReg(R3, 0x00000000)  returns 0x00 (0000ms, 3073ms total)
T1FB8 004:041 JLINK_WriteReg(R4, 0x00000000)  returns 0x00 (0000ms, 3073ms total)
T1FB8 004:041 JLINK_WriteReg(R5, 0x00000000)  returns 0x00 (0001ms, 3073ms total)
T1FB8 004:042 JLINK_WriteReg(R6, 0x00000000)  returns 0x00 (0000ms, 3074ms total)
T1FB8 004:042 JLINK_WriteReg(R7, 0x00000000)  returns 0x00 (0000ms, 3074ms total)
T1FB8 004:042 JLINK_WriteReg(R8, 0x00000000)  returns 0x00 (0000ms, 3074ms total)
T1FB8 004:042 JLINK_WriteReg(R9, 0x20000160)  returns 0x00 (0000ms, 3074ms total)
T1FB8 004:042 JLINK_WriteReg(R10, 0x00000000)  returns 0x00 (0000ms, 3074ms total)
T1FB8 004:042 JLINK_WriteReg(R11, 0x00000000)  returns 0x00 (0000ms, 3074ms total)
T1FB8 004:042 JLINK_WriteReg(R12, 0x00000000)  returns 0x00 (0000ms, 3074ms total)
T1FB8 004:042 JLINK_WriteReg(R13, 0x20000800)  returns 0x00 (0000ms, 3074ms total)
T1FB8 004:042 JLINK_WriteReg(R14, 0x20000001)  returns 0x00 (0000ms, 3074ms total)
T1FB8 004:042 JLINK_WriteReg(R15, 0x200000F4)  returns 0x00 (0000ms, 3074ms total)
T1FB8 004:042 JLINK_WriteReg(XPSR, 0x01000000)  returns 0x00 (0000ms, 3074ms total)
T1FB8 004:042 JLINK_WriteReg(MSP, 0x20000800)  returns 0x00 (0000ms, 3074ms total)
T1FB8 004:042 JLINK_WriteReg(PSP, 0x20000800)  returns 0x00 (0000ms, 3074ms total)
T1FB8 004:042 JLINK_WriteReg(CFBP, 0x00000000)  returns 0x00 (0000ms, 3074ms total)
T1FB8 004:042 JLINK_SetBPEx(Addr = 0x20000000, Type = 0xFFFFFFF2)  returns 0x0000000C (0000ms, 3074ms total)
T1FB8 004:042 JLINK_Go() -- CPU_WriteMem(4 bytes @ 0xE0002008) -- CPU_WriteMem(4 bytes @ 0xE000200C) -- CPU_WriteMem(4 bytes @ 0xE0002010) -- CPU_WriteMem(4 bytes @ 0xE0002014) -- CPU_WriteMem(4 bytes @ 0xE0002018) -- CPU_WriteMem(4 bytes @ 0xE000201C) (0037ms, 3074ms total)
T1FB8 004:079 JLINK_IsHalted()  returns FALSE (0004ms, 3111ms total)
T1FB8 004:151 JLINK_IsHalted() -- CPU_ReadMem(2 bytes @ 0x20000000)  returns TRUE (0039ms, 3111ms total)
T1FB8 004:190 JLINK_ReadReg(R15)  returns 0x20000000 (0000ms, 3111ms total)
T1FB8 004:190 JLINK_ClrBPEx(BPHandle = 0x0000000C)  returns 0x00 (0000ms, 3111ms total)
T1FB8 004:190 JLINK_ReadReg(R0)  returns 0x00000000 (0000ms, 3111ms total)
T1FB8 004:190 JLINK_WriteMem(0x20000164, 0x0400 Bytes, ...) -- Data:  00 26 1B E0 06 EB 86 00 30 49 01 EB 80 00 80 7C ... -- CPU_WriteMem(1024 bytes @ 0x20000164)  returns 0x400 (0012ms, 3111ms total)
T1FB8 004:202 JLINK_WriteReg(R0, 0x08002000)  returns 0x00 (0000ms, 3123ms total)
T1FB8 004:202 JLINK_WriteReg(R1, 0x00000400)  returns 0x00 (0000ms, 3123ms total)
T1FB8 004:202 JLINK_WriteReg(R2, 0x20000164)  returns 0x00 (0000ms, 3123ms total)
T1FB8 004:202 JLINK_WriteReg(R3, 0x00000000)  returns 0x00 (0000ms, 3123ms total)
T1FB8 004:202 JLINK_WriteReg(R4, 0x00000000)  returns 0x00 (0000ms, 3123ms total)
T1FB8 004:202 JLINK_WriteReg(R5, 0x00000000)  returns 0x00 (0000ms, 3123ms total)
T1FB8 004:202 JLINK_WriteReg(R6, 0x00000000)  returns 0x00 (0000ms, 3123ms total)
T1FB8 004:202 JLINK_WriteReg(R7, 0x00000000)  returns 0x00 (0000ms, 3123ms total)
T1FB8 004:202 JLINK_WriteReg(R8, 0x00000000)  returns 0x00 (0000ms, 3123ms total)
T1FB8 004:202 JLINK_WriteReg(R9, 0x20000160)  returns 0x00 (0000ms, 3123ms total)
T1FB8 004:202 JLINK_WriteReg(R10, 0x00000000)  returns 0x00 (0000ms, 3123ms total)
T1FB8 004:202 JLINK_WriteReg(R11, 0x00000000)  returns 0x00 (0000ms, 3123ms total)
T1FB8 004:202 JLINK_WriteReg(R12, 0x00000000)  returns 0x00 (0000ms, 3123ms total)
T1FB8 004:202 JLINK_WriteReg(R13, 0x20000800)  returns 0x00 (0000ms, 3123ms total)
T1FB8 004:202 JLINK_WriteReg(R14, 0x20000001)  returns 0x00 (0001ms, 3123ms total)
T1FB8 004:203 JLINK_WriteReg(R15, 0x200000F4)  returns 0x00 (0000ms, 3124ms total)
T1FB8 004:203 JLINK_WriteReg(XPSR, 0x01000000)  returns 0x00 (0000ms, 3124ms total)
T1FB8 004:203 JLINK_WriteReg(MSP, 0x20000800)  returns 0x00 (0000ms, 3124ms total)
T1FB8 004:203 JLINK_WriteReg(PSP, 0x20000800)  returns 0x00 (0000ms, 3124ms total)
T1FB8 004:203 JLINK_WriteReg(CFBP, 0x00000000)  returns 0x00 (0000ms, 3124ms total)
T1FB8 004:203 JLINK_SetBPEx(Addr = 0x20000000, Type = 0xFFFFFFF2)  returns 0x0000000D (0000ms, 3124ms total)
T1FB8 004:203 JLINK_Go() -- CPU_WriteMem(4 bytes @ 0xE0002008) -- CPU_WriteMem(4 bytes @ 0xE000200C) -- CPU_WriteMem(4 bytes @ 0xE0002010) -- CPU_WriteMem(4 bytes @ 0xE0002014) -- CPU_WriteMem(4 bytes @ 0xE0002018) -- CPU_WriteMem(4 bytes @ 0xE000201C) (0024ms, 3124ms total)
T1FB8 004:227 JLINK_IsHalted()  returns FALSE (0003ms, 3148ms total)
T1FB8 004:280 JLINK_IsHalted() -- CPU_ReadMem(2 bytes @ 0x20000000)  returns TRUE (0017ms, 3148ms total)
T1FB8 004:297 JLINK_ReadReg(R15)  returns 0x20000000 (0000ms, 3148ms total)
T1FB8 004:297 JLINK_ClrBPEx(BPHandle = 0x0000000D)  returns 0x00 (0000ms, 3148ms total)
T1FB8 004:297 JLINK_ReadReg(R0)  returns 0x00000000 (0001ms, 3148ms total)
T1FB8 004:299 JLINK_WriteMem(0x20000164, 0x0400 Bytes, ...) -- Data:  63 6B 65 74 20 64 72 6F 70 70 65 64 0A 00 00 00 ... -- CPU_WriteMem(1024 bytes @ 0x20000164)  returns 0x400 (0009ms, 3149ms total)
T1FB8 004:308 JLINK_WriteReg(R0, 0x08002400)  returns 0x00 (0000ms, 3158ms total)
T1FB8 004:308 JLINK_WriteReg(R1, 0x00000400)  returns 0x00 (0000ms, 3158ms total)
T1FB8 004:308 JLINK_WriteReg(R2, 0x20000164)  returns 0x00 (0000ms, 3158ms total)
T1FB8 004:308 JLINK_WriteReg(R3, 0x00000000)  returns 0x00 (0001ms, 3158ms total)
T1FB8 004:309 JLINK_WriteReg(R4, 0x00000000)  returns 0x00 (0000ms, 3159ms total)
T1FB8 004:309 JLINK_WriteReg(R5, 0x00000000)  returns 0x00 (0000ms, 3159ms total)
T1FB8 004:309 JLINK_WriteReg(R6, 0x00000000)  returns 0x00 (0000ms, 3159ms total)
T1FB8 004:309 JLINK_WriteReg(R7, 0x00000000)  returns 0x00 (0000ms, 3159ms total)
T1FB8 004:309 JLINK_WriteReg(R8, 0x00000000)  returns 0x00 (0000ms, 3159ms total)
T1FB8 004:309 JLINK_WriteReg(R9, 0x20000160)  returns 0x00 (0001ms, 3159ms total)
T1FB8 004:310 JLINK_WriteReg(R10, 0x00000000)  returns 0x00 (0000ms, 3160ms total)
T1FB8 004:310 JLINK_WriteReg(R11, 0x00000000)  returns 0x00 (0000ms, 3160ms total)
T1FB8 004:310 JLINK_WriteReg(R12, 0x00000000)  returns 0x00 (0000ms, 3160ms total)
T1FB8 004:310 JLINK_WriteReg(R13, 0x20000800)  returns 0x00 (0000ms, 3160ms total)
T1FB8 004:310 JLINK_WriteReg(R14, 0x20000001)  returns 0x00 (0000ms, 3160ms total)
T1FB8 004:310 JLINK_WriteReg(R15, 0x200000F4)  returns 0x00 (0000ms, 3160ms total)
T1FB8 004:310 JLINK_WriteReg(XPSR, 0x01000000)  returns 0x00 (0000ms, 3160ms total)
T1FB8 004:310 JLINK_WriteReg(MSP, 0x20000800)  returns 0x00 (0000ms, 3160ms total)
T1FB8 004:310 JLINK_WriteReg(PSP, 0x20000800)  returns 0x00 (0000ms, 3160ms total)
T1FB8 004:310 JLINK_WriteReg(CFBP, 0x00000000)  returns 0x00 (0000ms, 3160ms total)
T1FB8 004:310 JLINK_SetBPEx(Addr = 0x20000000, Type = 0xFFFFFFF2)  returns 0x0000000E (0000ms, 3160ms total)
T1FB8 004:310 JLINK_Go() -- CPU_WriteMem(4 bytes @ 0xE0002008) -- CPU_WriteMem(4 bytes @ 0xE000200C) -- CPU_WriteMem(4 bytes @ 0xE0002010) -- CPU_WriteMem(4 bytes @ 0xE0002014) -- CPU_WriteMem(4 bytes @ 0xE0002018) -- CPU_WriteMem(4 bytes @ 0xE000201C) (0031ms, 3160ms total)
T1FB8 004:341 JLINK_IsHalted()  returns FALSE (0004ms, 3191ms total)
T1FB8 004:396 JLINK_IsHalted() -- CPU_ReadMem(2 bytes @ 0x20000000)  returns TRUE (0013ms, 3191ms total)
T1FB8 004:412 JLINK_ReadReg(R15)  returns 0x20000000 (0000ms, 3191ms total)
T1FB8 004:412 JLINK_ClrBPEx(BPHandle = 0x0000000E)  returns 0x00 (0000ms, 3191ms total)
T1FB8 004:412 JLINK_ReadReg(R0)  returns 0x00000000 (0000ms, 3191ms total)
T1FB8 004:412 JLINK_WriteMem(0x20000164, 0x0400 Bytes, ...) -- Data:  0A 00 00 00 BC 0C 00 20 73 74 61 62 6C 65 00 00 ... -- CPU_WriteMem(1024 bytes @ 0x20000164)  returns 0x400 (0009ms, 3191ms total)
T1FB8 004:421 JLINK_WriteReg(R0, 0x08002800)  returns 0x00 (0000ms, 3200ms total)
T1FB8 004:421 JLINK_WriteReg(R1, 0x00000400)  returns 0x00 (0000ms, 3200ms total)
T1FB8 004:421 JLINK_WriteReg(R2, 0x20000164)  returns 0x00 (0000ms, 3200ms total)
T1FB8 004:421 JLINK_WriteReg(R3, 0x00000000)  returns 0x00 (0000ms, 3200ms total)
T1FB8 004:421 JLINK_WriteReg(R4, 0x00000000)  returns 0x00 (0000ms, 3200ms total)
T1FB8 004:421 JLINK_WriteReg(R5, 0x00000000)  returns 0x00 (0000ms, 3200ms total)
T1FB8 004:421 JLINK_WriteReg(R6, 0x00000000)  returns 0x00 (0000ms, 3200ms total)
T1FB8 004:421 JLINK_WriteReg(R7, 0x00000000)  returns 0x00 (0000ms, 3200ms total)
T1FB8 004:421 JLINK_WriteReg(R8, 0x00000000)  returns 0x00 (0000ms, 3200ms total)
T1FB8 004:421 JLINK_WriteReg(R9, 0x20000160)  returns 0x00 (0001ms, 3200ms total)
T1FB8 004:422 JLINK_WriteReg(R10, 0x00000000)  returns 0x00 (0000ms, 3201ms total)
T1FB8 004:422 JLINK_WriteReg(R11, 0x00000000)  returns 0x00 (0000ms, 3201ms total)
T1FB8 004:422 JLINK_WriteReg(R12, 0x00000000)  returns 0x00 (0000ms, 3201ms total)
T1FB8 004:422 JLINK_WriteReg(R13, 0x20000800)  returns 0x00 (0000ms, 3201ms total)
T1FB8 004:422 JLINK_WriteReg(R14, 0x20000001)  returns 0x00 (0000ms, 3201ms total)
T1FB8 004:422 JLINK_WriteReg(R15, 0x200000F4)  returns 0x00 (0000ms, 3201ms total)
T1FB8 004:422 JLINK_WriteReg(XPSR, 0x01000000)  returns 0x00 (0000ms, 3201ms total)
T1FB8 004:422 JLINK_WriteReg(MSP, 0x20000800)  returns 0x00 (0000ms, 3201ms total)
T1FB8 004:422 JLINK_WriteReg(PSP, 0x20000800)  returns 0x00 (0000ms, 3201ms total)
T1FB8 004:422 JLINK_WriteReg(CFBP, 0x00000000)  returns 0x00 (0000ms, 3201ms total)
T1FB8 004:422 JLINK_SetBPEx(Addr = 0x20000000, Type = 0xFFFFFFF2)  returns 0x0000000F (0000ms, 3201ms total)
T1FB8 004:422 JLINK_Go() -- CPU_WriteMem(4 bytes @ 0xE0002008) -- CPU_WriteMem(4 bytes @ 0xE000200C) -- CPU_WriteMem(4 bytes @ 0xE0002010) -- CPU_WriteMem(4 bytes @ 0xE0002014) -- CPU_WriteMem(4 bytes @ 0xE0002018) -- CPU_WriteMem(4 bytes @ 0xE000201C) (0024ms, 3201ms total)
T1FB8 004:447 JLINK_IsHalted()  returns FALSE (0002ms, 3226ms total)
T1FB8 004:500 JLINK_IsHalted() -- CPU_ReadMem(2 bytes @ 0x20000000)  returns TRUE (0012ms, 3226ms total)
T1FB8 004:512 JLINK_ReadReg(R15)  returns 0x20000000 (0000ms, 3226ms total)
T1FB8 004:512 JLINK_ClrBPEx(BPHandle = 0x0000000F)  returns 0x00 (0001ms, 3226ms total)
T1FB8 004:513 JLINK_ReadReg(R0)  returns 0x00000000 (0000ms, 3227ms total)
T1FB8 004:513 JLINK_WriteMem(0x20000164, 0x0400 Bytes, ...) -- Data:  2D E9 FE 4F 04 46 8A 46 9E 48 B0 F8 62 00 40 1C ... -- CPU_WriteMem(1024 bytes @ 0x20000164)  returns 0x400 (0008ms, 3227ms total)
T1FB8 004:521 JLINK_WriteReg(R0, 0x08002C00)  returns 0x00 (0001ms, 3235ms total)
T1FB8 004:522 JLINK_WriteReg(R1, 0x00000400)  returns 0x00 (0000ms, 3236ms total)
T1FB8 004:522 JLINK_WriteReg(R2, 0x20000164)  returns 0x00 (0000ms, 3236ms total)
T1FB8 004:522 JLINK_WriteReg(R3, 0x00000000)  returns 0x00 (0000ms, 3236ms total)
T1FB8 004:522 JLINK_WriteReg(R4, 0x00000000)  returns 0x00 (0000ms, 3236ms total)
T1FB8 004:522 JLINK_WriteReg(R5, 0x00000000)  returns 0x00 (0000ms, 3236ms total)
T1FB8 004:522 JLINK_WriteReg(R6, 0x00000000)  returns 0x00 (0000ms, 3236ms total)
T1FB8 004:522 JLINK_WriteReg(R7, 0x00000000)  returns 0x00 (0000ms, 3236ms total)
T1FB8 004:522 JLINK_WriteReg(R8, 0x00000000)  returns 0x00 (0000ms, 3236ms total)
T1FB8 004:522 JLINK_WriteReg(R9, 0x20000160)  returns 0x00 (0000ms, 3236ms total)
T1FB8 004:522 JLINK_WriteReg(R10, 0x00000000)  returns 0x00 (0000ms, 3236ms total)
T1FB8 004:522 JLINK_WriteReg(R11, 0x00000000)  returns 0x00 (0000ms, 3236ms total)
T1FB8 004:522 JLINK_WriteReg(R12, 0x00000000)  returns 0x00 (0000ms, 3236ms total)
T1FB8 004:522 JLINK_WriteReg(R13, 0x20000800)  returns 0x00 (0000ms, 3236ms total)
T1FB8 004:522 JLINK_WriteReg(R14, 0x20000001)  returns 0x00 (0000ms, 3236ms total)
T1FB8 004:522 JLINK_WriteReg(R15, 0x200000F4)  returns 0x00 (0000ms, 3236ms total)
T1FB8 004:522 JLINK_WriteReg(XPSR, 0x01000000)  returns 0x00 (0001ms, 3236ms total)
T1FB8 004:523 JLINK_WriteReg(MSP, 0x20000800)  returns 0x00 (0000ms, 3237ms total)
T1FB8 004:523 JLINK_WriteReg(PSP, 0x20000800)  returns 0x00 (0000ms, 3237ms total)
T1FB8 004:523 JLINK_WriteReg(CFBP, 0x00000000)  returns 0x00 (0000ms, 3237ms total)
T1FB8 004:523 JLINK_SetBPEx(Addr = 0x20000000, Type = 0xFFFFFFF2)  returns 0x00000010 (0000ms, 3237ms total)
T1FB8 004:523 JLINK_Go() -- CPU_WriteMem(4 bytes @ 0xE0002008) -- CPU_WriteMem(4 bytes @ 0xE000200C) -- CPU_WriteMem(4 bytes @ 0xE0002010) -- CPU_WriteMem(4 bytes @ 0xE0002014) -- CPU_WriteMem(4 bytes @ 0xE0002018) -- CPU_WriteMem(4 bytes @ 0xE000201C) (0030ms, 3237ms total)
T1FB8 004:553 JLINK_IsHalted()  returns FALSE (0003ms, 3267ms total)
T1FB8 004:606 JLINK_IsHalted() -- CPU_ReadMem(2 bytes @ 0x20000000)  returns TRUE (0017ms, 3267ms total)
T1FB8 004:623 JLINK_ReadReg(R15)  returns 0x20000000 (0000ms, 3267ms total)
T1FB8 004:623 JLINK_ClrBPEx(BPHandle = 0x00000010)  returns 0x00 (0000ms, 3267ms total)
T1FB8 004:624 JLINK_ReadReg(R0)  returns 0x00000000 (0000ms, 3267ms total)
T1FB8 004:624 JLINK_WriteMem(0x20000164, 0x0400 Bytes, ...) -- Data:  63 6F 70 79 69 6E 67 20 74 6F 20 6E 65 77 20 70 ... -- CPU_WriteMem(1024 bytes @ 0x20000164)  returns 0x400 (0009ms, 3267ms total)
T1FB8 004:633 JLINK_WriteReg(R0, 0x08003000)  returns 0x00 (0000ms, 3276ms total)
T1FB8 004:633 JLINK_WriteReg(R1, 0x00000400)  returns 0x00 (0000ms, 3276ms total)
T1FB8 004:633 JLINK_WriteReg(R2, 0x20000164)  returns 0x00 (0000ms, 3276ms total)
T1FB8 004:633 JLINK_WriteReg(R3, 0x00000000)  returns 0x00 (0000ms, 3276ms total)
T1FB8 004:633 JLINK_WriteReg(R4, 0x00000000)  returns 0x00 (0000ms, 3276ms total)
T1FB8 004:633 JLINK_WriteReg(R5, 0x00000000)  returns 0x00 (0000ms, 3276ms total)
T1FB8 004:633 JLINK_WriteReg(R6, 0x00000000)  returns 0x00 (0000ms, 3276ms total)
T1FB8 004:633 JLINK_WriteReg(R7, 0x00000000)  returns 0x00 (0001ms, 3276ms total)
T1FB8 004:634 JLINK_WriteReg(R8, 0x00000000)  returns 0x00 (0000ms, 3277ms total)
T1FB8 004:634 JLINK_WriteReg(R9, 0x20000160)  returns 0x00 (0000ms, 3277ms total)
T1FB8 004:634 JLINK_WriteReg(R10, 0x00000000)  returns 0x00 (0000ms, 3277ms total)
T1FB8 004:634 JLINK_WriteReg(R11, 0x00000000)  returns 0x00 (0000ms, 3277ms total)
T1FB8 004:634 JLINK_WriteReg(R12, 0x00000000)  returns 0x00 (0000ms, 3277ms total)
T1FB8 004:634 JLINK_WriteReg(R13, 0x20000800)  returns 0x00 (0000ms, 3277ms total)
T1FB8 004:634 JLINK_WriteReg(R14, 0x20000001)  returns 0x00 (0000ms, 3277ms total)
T1FB8 004:634 JLINK_WriteReg(R15, 0x200000F4)  returns 0x00 (0000ms, 3277ms total)
T1FB8 004:634 JLINK_WriteReg(XPSR, 0x01000000)  returns 0x00 (0000ms, 3277ms total)
T1FB8 004:634 JLINK_WriteReg(MSP, 0x20000800)  returns 0x00 (0000ms, 3277ms total)
T1FB8 004:634 JLINK_WriteReg(PSP, 0x20000800)  returns 0x00 (0000ms, 3277ms total)
T1FB8 004:634 JLINK_WriteReg(CFBP, 0x00000000)  returns 0x00 (0000ms, 3277ms total)
T1FB8 004:634 JLINK_SetBPEx(Addr = 0x20000000, Type = 0xFFFFFFF2)  returns 0x00000011 (0001ms, 3277ms total)
